
T15A0 000:516 SEGGER J-Link V4.40c Log File (0001ms, 0513ms total)
T15A0 000:516 DLL Compiled: Jan 24 2012 09:30:33 (0001ms, 0513ms total)
T15A0 000:516 Logging started @ 2015-10-13 10:15 (0001ms, 0513ms total)
T15A0 000:517 JLINK_SetWarnOutHandler(...) (0000ms, 0514ms total)
T15A0 000:517 JLINK_OpenEx(...)
Firmware: J-Link ARM V8 compiled Nov 14 2012 22:34:52
Hardware: V8.00
S/N: 1631096674
Feature(s): RDI,FlashDL,FlashBP,JFlash,GDBFULL  returns O.K. (0205ms, 0514ms total)
T15A0 000:724 JLINK_SetErrorOutHandler(...) (0000ms, 0719ms total)
T15A0 000:726 JLINK_ExecCommand("Device = STM32F405VG", ...)
                JLINK_ExecCommand("map ram 0x20000000 - 0x2001FFFF", ...)  returns 0x00 (0000ms, 0000ms total)
                JLINK_AddMirrorAreaEx(Addr = 0x00000000, Size = 0x00000000) (0000ms, 0000ms total)
              Device "STM32F405VG" selected (1024 KB flash, 128 KB RAM).  returns 0x00 (0009ms, 0719ms total)
T15A0 000:746 JLINK_ExecCommand("ProjectFile = "D:\工作(机密)\转台(机密)\双板标定V2\Control_Board_V1.9-liang - 改标定流程 -V4\Control_Board_V1.10\USER\JLinkSettings.ini"", ...)  returns 0x00 (0002ms, 0728ms total)
T15A0 000:753 JLINK_ExecCommand("DisableConnectionTimeout", ...)  returns 0x00 (0000ms, 0730ms total)
T15A0 000:753 JLINK_TIF_Select(JLINKARM_TIF_SWD)  returns 0x00 (0005ms, 0730ms total)
T15A0 000:758 JLINK_SetSpeed(2000) (0001ms, 0735ms total)
T15A0 000:759 JLINK_GetHardwareVersion()  returns 0x13880 (0000ms, 0736ms total)
T15A0 000:759 JLINK_GetDLLVersion()  returns 44003 (0000ms, 0736ms total)
T15A0 000:759 JLINK_GetFirmwareString(...) (0000ms, 0736ms total)
T15A0 000:776 JLINK_GetDLLVersion()  returns 44003 (0000ms, 0736ms total)
T15A0 000:776 JLINK_GetCompileDateTime() (0000ms, 0736ms total)
T15A0 000:782 JLINK_GetFirmwareString(...) (0000ms, 0736ms total)
T15A0 000:791 JLINK_GetHardwareVersion()  returns 0x13880 (0000ms, 0736ms total)
T15A0 000:815 JLINK_GetId() >0x108 TIF>Found SWD-DP with ID 0x2BA01477 >0x33 TIF> >0x33 TIF> >0x35 TIF> >0x33 TIF> >0x33 TIF> >0x35 TIF> >0x33 TIF> >0x33 TIF> >0x35 TIF> >0x33 TIF> >0x33 TIF> >0x35 TIF> >0x33 TIF> >0x33 TIF> >0x35 TIF> >0x35 TIF> >0x35 TIF> >0x35 TIF> >0x35 TIF> >0x33 TIF> >0x33 TIF> >0x35 TIF> >0x35 TIF> >0x35 TIF> >0x33 TIF> >0x33 TIF> >0x33 TIF>TPIU fitted.ETM fitted. >0x35 TIF> >0x33 TIF> >0x33 TIF> >0x35 TIF> >0x33 TIF> >0x33 TIF>  FPUnit: 6 code (BP) slots and 2 literal slots
 >0x35 TIF> >0x33 TIF> >0x33 TIF> >0x35 TIF> >0x35 TIF> >0x35 TIF> >0x33 TIF> >0x33 TIF> >0x35 TIF> >0x33 TIF> >0x33 TIF> >0x35 TIF> >0x33 TIF> >0x33 TIF>Found Cortex-M4 r0p1, Little endian. >0x33 TIF>  returns 0x2BA01477 (0081ms, 0736ms total)
T15A0 000:896 JLINK_GetDebugInfo(0x100) -- Value=0xE00FF003  returns 0x00 (0000ms, 0817ms total)
T15A0 000:903 JLINK_ReadMem (0xE00FFFF0, 0x0010 Bytes, ...) -- CPU is running -- CPU_ReadMem(16 bytes @ 0xE00FFFF0) -- Data:  0D 00 00 00 10 00 00 00 05 00 00 00 B1 00 00 00  returns 0x00 (0002ms, 0817ms total)
T15A0 000:905 JLINK_ReadMem (0xE00FFFD0, 0x0020 Bytes, ...) -- CPU is running -- CPU_ReadMem(32 bytes @ 0xE00FFFD0) -- Data:  00 00 00 00 00 00 00 00 00 00 00 00 00 00 00 00 ...  returns 0x00 (0002ms, 0819ms total)
T15A0 000:907 JLINK_ReadMem (0xE00FF000, 0x0018 Bytes, ...) -- CPU is running -- CPU_ReadMem(24 bytes @ 0xE00FF000) -- Data:  03 F0 F0 FF 03 20 F0 FF 03 30 F0 FF 03 10 F0 FF ...  returns 0x00 (0002ms, 0821ms total)
T15A0 000:909 JLINK_ReadMemU32(0xE000ED00, 0x0001 Items, ...) -- CPU is running -- CPU_ReadMem(4 bytes @ 0xE000ED00) -- Data:  41 C2 0F 41  returns 0x01 (0001ms, 0823ms total)
T15A0 000:910 JLINK_ReadMemU32(0xE000EF40, 0x0001 Items, ...) -- CPU is running -- CPU_ReadMem(4 bytes @ 0xE000EF40) -- Data:  21 00 11 10  returns 0x01 (0001ms, 0824ms total)
T15A0 000:911 JLINK_ReadMemU32(0xE000EF44, 0x0001 Items, ...) -- CPU is running -- CPU_ReadMem(4 bytes @ 0xE000EF44) -- Data:  11 00 00 11  returns 0x01 (0001ms, 0825ms total)
T15A0 000:912 JLINK_SetResetType(JLINKARM_RESET_TYPE_NORMAL)  returns JLINKARM_RESET_TYPE_NORMAL (0000ms, 0826ms total)
T15A0 000:912 JLINK_Reset() >0x108 TIF>Found SWD-DP with ID 0x2BA01477 >0x33 TIF> >0x33 TIF> >0x35 TIF> >0x33 TIF> >0x35 TIF> >0x33 TIF> >0x33 TIF> >0x35 TIF> >0x33 TIF> >0x33 TIF> >0x35 TIF> >0x33 TIF> >0x33 TIF> >0x35 TIF> >0x33 TIF> >0x33 TIF> >0x35 TIF> >0x35 TIF> >0x35 TIF> >0x35 TIF> >0x35 TIF> >0x33 TIF> >0x33 TIF> >0x35 TIF> >0x33 TIF> >0x33 TIF> >0x33 TIF>TPIU fitted.ETM fitted. >0x35 TIF> >0x33 TIF> >0x33 TIF> >0x35 TIF> >0x33 TIF> >0x33 TIF>  FPUnit: 6 code (BP) slots and 2 literal slots
 >0x35 TIF> >0x33 TIF> >0x33 TIF> >0x35 TIF> >0x33 TIF> >0x33 TIF> >0x35 TIF> >0x33 TIF> >0x33 TIF> >0x35 TIF> >0x33 TIF> >0x33 TIF>Found Cortex-M4 r0p1, Little endian. -- CPU is running -- CPU_WriteMem(4 bytes @ 0xE000EDF0) -- CPU is running -- CPU_WriteMem(4 bytes @ 0xE000EDFC) >0x35 TIF> -- CPU is running -- CPU_WriteMem(4 bytes @ 0xE000ED0C) -- CPU is running -- CPU_ReadMem(4 bytes @ 0xE000EDF0) -- CPU is running -- CPU_ReadMem(4 bytes @ 0xE000EDF0) -- CPU is running
 -- CPU_ReadMem(4 bytes @ 0xE000EDF0) -- CPU is running -- CPU_ReadMem(4 bytes @ 0xE000EDF0) -- CPU is running -- CPU_ReadMem(4 bytes @ 0xE000EDF0) -- CPU is running -- CPU_ReadMem(4 bytes @ 0xE000EDF0) -- CPU is running -- CPU_ReadMem(4 bytes @ 0xE000EDF0) -- CPU is running -- CPU_ReadMem(4 bytes @ 0xE000EDF0) -- CPU is running -- CPU_WriteMem(4 bytes @ 0xE000EDF0) -- CPU is running -- CPU_WriteMem(4 bytes @ 0xE000EDFC) -- CPU is running -- CPU_ReadMem(4 bytes @ 0xE000EDF0) (0097ms, 0826ms total)
T15A0 001:010 JLINK_Halt()  returns 0x00 (0001ms, 0923ms total)
T15A0 001:011 JLINK_IsHalted()  returns TRUE (0000ms, 0924ms total)
T15A0 001:011 JLINK_ReadMemU32(0xE000EDF0, 0x0001 Items, ...) -- CPU_ReadMem(4 bytes @ 0xE000EDF0) -- Data:  03 00 03 00  returns 0x01 (0001ms, 0924ms total)
T15A0 001:012 JLINK_WriteU32(0xE000EDF0, 0xA05F0003) -- CPU_WriteMem(4 bytes @ 0xE000EDF0)  returns 0x00 (0001ms, 0925ms total)
T15A0 001:013 JLINK_WriteU32(0xE000EDFC, 0x01000000) -- CPU_WriteMem(4 bytes @ 0xE000EDFC)  returns 0x00 (0001ms, 0926ms total)
T15A0 001:034 JLINK_GetHWStatus(...)  returns 0x00 (0001ms, 0927ms total)
T15A0 001:050 JLINK_GetNumBPUnits(Type = 0xFFFFFF00)  returns 0x06 (0000ms, 0928ms total)
T15A0 001:050 JLINK_GetNumBPUnits(Type = 0xF0)  returns 0x2000 (0000ms, 0928ms total)
T15A0 001:050 JLINK_GetNumWPUnits()  returns 0x04 (0000ms, 0928ms total)
T15A0 001:063 JLINK_GetSpeed()  returns 0x7D0 (0000ms, 0928ms total)
T15A0 001:073 JLINK_ReadMemU32(0xE000E004, 0x0001 Items, ...) -- CPU_ReadMem(4 bytes @ 0xE000E004) -- Data:  02 00 00 00  returns 0x01 (0002ms, 0928ms total)
T15A0 001:075 JLINK_ReadMemU32(0xE000E004, 0x0001 Items, ...) -- CPU_ReadMem(4 bytes @ 0xE000E004) -- Data:  02 00 00 00  returns 0x01 (0001ms, 0930ms total)
T15A0 001:076 JLINK_WriteMem(0xE0001000, 0x001C Bytes, ...) -- Data:  01 00 00 00 00 00 00 00 00 00 00 00 00 00 00 00 ... -- CPU_WriteMem(28 bytes @ 0xE0001000)  returns 0x1C (0001ms, 0931ms total)
T15A0 001:077 JLINK_ReadMem (0xE0001000, 0x001C Bytes, ...) -- CPU_ReadMem(28 bytes @ 0xE0001000) -- Data:  01 00 00 40 00 00 00 00 00 00 00 00 00 00 00 00 ...  returns 0x00 (0001ms, 0932ms total)
T15A0 001:078 JLINK_Halt()  returns 0x00 (0000ms, 0933ms total)
T15A0 001:078 JLINK_IsHalted()  returns TRUE (0000ms, 0933ms total)
T15A0 001:081 JLINK_WriteMem(0x20000000, 0x0180 Bytes, ...) -- Data:  00 BE 0A E0 0D 78 2D 06 68 40 08 24 40 00 00 D3 ... -- CPU_WriteMem(384 bytes @ 0x20000000)  returns 0x180 (0005ms, 0933ms total)
T15A0 001:086 JLINK_WriteReg(R0, 0x08000000)  returns 0x00 (0000ms, 0938ms total)
T15A0 001:086 JLINK_WriteReg(R1, 0x017D7840)  returns 0x00 (0000ms, 0938ms total)
T15A0 001:086 JLINK_WriteReg(R2, 0x00000001)  returns 0x00 (0000ms, 0938ms total)
T15A0 001:086 JLINK_WriteReg(R3, 0x00000000)  returns 0x00 (0000ms, 0938ms total)
T15A0 001:086 JLINK_WriteReg(R4, 0x00000000)  returns 0x00 (0000ms, 0938ms total)
T15A0 001:086 JLINK_WriteReg(R5, 0x00000000)  returns 0x00 (0000ms, 0938ms total)
T15A0 001:086 JLINK_WriteReg(R6, 0x00000000)  returns 0x00 (0000ms, 0938ms total)
T15A0 001:086 JLINK_WriteReg(R7, 0x00000000)  returns 0x00 (0000ms, 0938ms total)
T15A0 001:086 JLINK_WriteReg(R8, 0x00000000)  returns 0x00 (0000ms, 0938ms total)
T15A0 001:086 JLINK_WriteReg(R9, 0x2000017C)  returns 0x00 (0000ms, 0938ms total)
T15A0 001:086 JLINK_WriteReg(R10, 0x00000000)  returns 0x00 (0000ms, 0938ms total)
T15A0 001:086 JLINK_WriteReg(R11, 0x00000000)  returns 0x00 (0000ms, 0938ms total)
T15A0 001:086 JLINK_WriteReg(R12, 0x00000000)  returns 0x00 (0000ms, 0938ms total)
T15A0 001:086 JLINK_WriteReg(R13, 0x20000800)  returns 0x00 (0000ms, 0938ms total)
T15A0 001:086 JLINK_WriteReg(R14, 0x20000001)  returns 0x00 (0001ms, 0938ms total)
T15A0 001:087 JLINK_WriteReg(R15, 0x20000054)  returns 0x00 (0000ms, 0939ms total)
T15A0 001:087 JLINK_WriteReg(XPSR, 0x01000000)  returns 0x00 (0000ms, 0939ms total)
T15A0 001:087 JLINK_WriteReg(MSP, 0x20000800)  returns 0x00 (0000ms, 0939ms total)
T15A0 001:087 JLINK_WriteReg(PSP, 0x20000800)  returns 0x00 (0000ms, 0939ms total)
T15A0 001:087 JLINK_WriteReg(CFBP, 0x00000000)  returns 0x00 (0000ms, 0939ms total)
T15A0 001:087 JLINK_SetBPEx(Addr = 0x20000000, Type = 0xFFFFFFF2) -- CPU_ReadMem(2 bytes @ 0x20000000)  returns 0x00000001 (0001ms, 0939ms total)
T15A0 001:088 JLINK_Go() -- CPU_WriteMem(2 bytes @ 0x20000000) -- CPU_WriteMem(4 bytes @ 0xE0002008) -- CPU_WriteMem(4 bytes @ 0xE000200C) -- CPU_WriteMem(4 bytes @ 0xE0002010) -- CPU_WriteMem(4 bytes @ 0xE0002014) -- CPU_WriteMem(4 bytes @ 0xE0002018) -- CPU_WriteMem(4 bytes @ 0xE000201C) (0010ms, 0940ms total)
T15A0 001:098 JLINK_IsHalted() -- CPU_ReadMem(2 bytes @ 0x20000000)  returns TRUE (0005ms, 0950ms total)
T15A0 001:103 JLINK_ReadReg(R15)  returns 0x20000000 (0000ms, 0950ms total)
T15A0 001:103 JLINK_ClrBPEx(BPHandle = 0x00000001)  returns 0x00 (0000ms, 0950ms total)
T15A0 001:103 JLINK_ReadReg(R0)  returns 0x00000000 (0000ms, 0950ms total)
T15A0 001:104 JLINK_WriteReg(R0, 0x08000000)  returns 0x00 (0000ms, 0950ms total)
T15A0 001:104 JLINK_WriteReg(R1, 0x00004000)  returns 0x00 (0000ms, 0950ms total)
T15A0 001:104 JLINK_WriteReg(R2, 0x000000FF)  returns 0x00 (0000ms, 0950ms total)
T15A0 001:104 JLINK_WriteReg(R3, 0x00000000)  returns 0x00 (0000ms, 0950ms total)
T15A0 001:104 JLINK_WriteReg(R4, 0x00000000)  returns 0x00 (0000ms, 0950ms total)
T15A0 001:104 JLINK_WriteReg(R5, 0x00000000)  returns 0x00 (0000ms, 0950ms total)
T15A0 001:104 JLINK_WriteReg(R6, 0x00000000)  returns 0x00 (0000ms, 0950ms total)
T15A0 001:104 JLINK_WriteReg(R7, 0x00000000)  returns 0x00 (0000ms, 0950ms total)
T15A0 001:104 JLINK_WriteReg(R8, 0x00000000)  returns 0x00 (0000ms, 0950ms total)
T15A0 001:104 JLINK_WriteReg(R9, 0x2000017C)  returns 0x00 (0000ms, 0950ms total)
T15A0 001:104 JLINK_WriteReg(R10, 0x00000000)  returns 0x00 (0000ms, 0950ms total)
T15A0 001:104 JLINK_WriteReg(R11, 0x00000000)  returns 0x00 (0000ms, 0950ms total)
T15A0 001:104 JLINK_WriteReg(R12, 0x00000000)  returns 0x00 (0000ms, 0950ms total)
T15A0 001:104 JLINK_WriteReg(R13, 0x20000800)  returns 0x00 (0001ms, 0950ms total)
T15A0 001:105 JLINK_WriteReg(R14, 0x20000001)  returns 0x00 (0000ms, 0951ms total)
T15A0 001:105 JLINK_WriteReg(R15, 0x20000020)  returns 0x00 (0000ms, 0951ms total)
T15A0 001:105 JLINK_WriteReg(XPSR, 0x01000000)  returns 0x00 (0000ms, 0951ms total)
T15A0 001:105 JLINK_WriteReg(MSP, 0x20000800)  returns 0x00 (0000ms, 0951ms total)
T15A0 001:105 JLINK_WriteReg(PSP, 0x20000800)  returns 0x00 (0000ms, 0951ms total)
T15A0 001:105 JLINK_WriteReg(CFBP, 0x00000000)  returns 0x00 (0000ms, 0951ms total)
T15A0 001:105 JLINK_SetBPEx(Addr = 0x20000000, Type = 0xFFFFFFF2)  returns 0x00000002 (0000ms, 0951ms total)
T15A0 001:105 JLINK_Go() -- CPU_WriteMem(4 bytes @ 0xE0002008) -- CPU_WriteMem(4 bytes @ 0xE000200C) -- CPU_WriteMem(4 bytes @ 0xE0002010) -- CPU_WriteMem(4 bytes @ 0xE0002014) -- CPU_WriteMem(4 bytes @ 0xE0002018) -- CPU_WriteMem(4 bytes @ 0xE000201C) (0010ms, 0951ms total)
T15A0 001:115 JLINK_IsHalted() -- CPU_ReadMem(2 bytes @ 0x20000000)  returns TRUE (0005ms, 0961ms total)
T15A0 001:120 JLINK_ReadReg(R15)  returns 0x20000000 (0000ms, 0961ms total)
T15A0 001:120 JLINK_ClrBPEx(BPHandle = 0x00000002)  returns 0x00 (0000ms, 0961ms total)
T15A0 001:120 JLINK_ReadReg(R0)  returns 0x00000001 (0000ms, 0961ms total)
T15A0 001:120 JLINK_WriteReg(R0, 0x08000000)  returns 0x00 (0000ms, 0961ms total)
T15A0 001:120 JLINK_WriteReg(R1, 0x00004000)  returns 0x00 (0000ms, 0961ms total)
T15A0 001:120 JLINK_WriteReg(R2, 0x000000FF)  returns 0x00 (0000ms, 0961ms total)
T15A0 001:120 JLINK_WriteReg(R3, 0x00000000)  returns 0x00 (0000ms, 0961ms total)
T15A0 001:120 JLINK_WriteReg(R4, 0x00000000)  returns 0x00 (0000ms, 0961ms total)
T15A0 001:120 JLINK_WriteReg(R5, 0x00000000)  returns 0x00 (0000ms, 0961ms total)
T15A0 001:120 JLINK_WriteReg(R6, 0x00000000)  returns 0x00 (0000ms, 0961ms total)
T15A0 001:120 JLINK_WriteReg(R7, 0x00000000)  returns 0x00 (0000ms, 0961ms total)
T15A0 001:120 JLINK_WriteReg(R8, 0x00000000)  returns 0x00 (0000ms, 0961ms total)
T15A0 001:121 JLINK_WriteReg(R9, 0x2000017C)  returns 0x00 (0000ms, 0962ms total)
T15A0 001:121 JLINK_WriteReg(R10, 0x00000000)  returns 0x00 (0000ms, 0962ms total)
T15A0 001:121 JLINK_WriteReg(R11, 0x00000000)  returns 0x00 (0000ms, 0962ms total)
T15A0 001:121 JLINK_WriteReg(R12, 0x00000000)  returns 0x00 (0000ms, 0962ms total)
T15A0 001:121 JLINK_WriteReg(R13, 0x20000800)  returns 0x00 (0000ms, 0962ms total)
T15A0 001:121 JLINK_WriteReg(R14, 0x20000001)  returns 0x00 (0000ms, 0962ms total)
T15A0 001:121 JLINK_WriteReg(R15, 0x200000BC)  returns 0x00 (0000ms, 0962ms total)
T15A0 001:121 JLINK_WriteReg(XPSR, 0x01000000)  returns 0x00 (0000ms, 0962ms total)
T15A0 001:121 JLINK_WriteReg(MSP, 0x20000800)  returns 0x00 (0000ms, 0962ms total)
T15A0 001:121 JLINK_WriteReg(PSP, 0x20000800)  returns 0x00 (0000ms, 0962ms total)
T15A0 001:121 JLINK_WriteReg(CFBP, 0x00000000)  returns 0x00 (0000ms, 0962ms total)
T15A0 001:121 JLINK_SetBPEx(Addr = 0x20000000, Type = 0xFFFFFFF2)  returns 0x00000003 (0000ms, 0962ms total)
T15A0 001:121 JLINK_Go() -- CPU_WriteMem(4 bytes @ 0xE0002008) -- CPU_WriteMem(4 bytes @ 0xE000200C) -- CPU_WriteMem(4 bytes @ 0xE0002010) -- CPU_WriteMem(4 bytes @ 0xE0002014) -- CPU_WriteMem(4 bytes @ 0xE0002018) -- CPU_WriteMem(4 bytes @ 0xE000201C) (0009ms, 0962ms total)
T15A0 001:130 JLINK_IsHalted()  returns FALSE (0001ms, 0971ms total)
T15A0 001:181 JLINK_IsHalted()  returns FALSE (0001ms, 0971ms total)
T15A0 001:232 JLINK_IsHalted()  returns FALSE (0001ms, 0971ms total)
T15A0 001:283 JLINK_IsHalted()  returns FALSE (0001ms, 0971ms total)
T15A0 001:334 JLINK_IsHalted()  returns FALSE (0001ms, 0971ms total)
T15A0 001:385 JLINK_IsHalted()  returns FALSE (0001ms, 0971ms total)
T15A0 001:436 JLINK_IsHalted()  returns FALSE (0001ms, 0971ms total)
T15A0 001:487 JLINK_IsHalted()  returns FALSE (0001ms, 0971ms total)
T15A0 001:538 JLINK_IsHalted() -- CPU_ReadMem(2 bytes @ 0x20000000)  returns TRUE (0005ms, 0971ms total)
T15A0 001:543 JLINK_ReadReg(R15)  returns 0x20000000 (0000ms, 0971ms total)
T15A0 001:543 JLINK_ClrBPEx(BPHandle = 0x00000003)  returns 0x00 (0000ms, 0971ms total)
T15A0 001:543 JLINK_ReadReg(R0)  returns 0x00000000 (0000ms, 0971ms total)
T15A0 001:544 JLINK_WriteReg(R0, 0x08004000)  returns 0x00 (0000ms, 0971ms total)
T15A0 001:544 JLINK_WriteReg(R1, 0x00004000)  returns 0x00 (0000ms, 0971ms total)
T15A0 001:544 JLINK_WriteReg(R2, 0x000000FF)  returns 0x00 (0000ms, 0971ms total)
T15A0 001:544 JLINK_WriteReg(R3, 0x00000000)  returns 0x00 (0000ms, 0971ms total)
T15A0 001:544 JLINK_WriteReg(R4, 0x00000000)  returns 0x00 (0000ms, 0971ms total)
T15A0 001:544 JLINK_WriteReg(R5, 0x00000000)  returns 0x00 (0000ms, 0971ms total)
T15A0 001:544 JLINK_WriteReg(R6, 0x00000000)  returns 0x00 (0000ms, 0971ms total)
T15A0 001:544 JLINK_WriteReg(R7, 0x00000000)  returns 0x00 (0000ms, 0971ms total)
T15A0 001:544 JLINK_WriteReg(R8, 0x00000000)  returns 0x00 (0000ms, 0971ms total)
T15A0 001:544 JLINK_WriteReg(R9, 0x2000017C)  returns 0x00 (0000ms, 0971ms total)
T15A0 001:544 JLINK_WriteReg(R10, 0x00000000)  returns 0x00 (0000ms, 0971ms total)
T15A0 001:544 JLINK_WriteReg(R11, 0x00000000)  returns 0x00 (0000ms, 0971ms total)
T15A0 001:545 JLINK_WriteReg(R12, 0x00000000)  returns 0x00 (0000ms, 0972ms total)
T15A0 001:545 JLINK_WriteReg(R13, 0x20000800)  returns 0x00 (0000ms, 0972ms total)
T15A0 001:545 JLINK_WriteReg(R14, 0x20000001)  returns 0x00 (0000ms, 0972ms total)
T15A0 001:545 JLINK_WriteReg(R15, 0x20000020)  returns 0x00 (0000ms, 0972ms total)
T15A0 001:545 JLINK_WriteReg(XPSR, 0x01000000)  returns 0x00 (0000ms, 0972ms total)
T15A0 001:545 JLINK_WriteReg(MSP, 0x20000800)  returns 0x00 (0000ms, 0972ms total)
T15A0 001:545 JLINK_WriteReg(PSP, 0x20000800)  returns 0x00 (0000ms, 0972ms total)
T15A0 001:545 JLINK_WriteReg(CFBP, 0x00000000)  returns 0x00 (0000ms, 0972ms total)
T15A0 001:545 JLINK_SetBPEx(Addr = 0x20000000, Type = 0xFFFFFFF2)  returns 0x00000004 (0000ms, 0972ms total)
T15A0 001:545 JLINK_Go() -- CPU_WriteMem(4 bytes @ 0xE0002008) -- CPU_WriteMem(4 bytes @ 0xE000200C) -- CPU_WriteMem(4 bytes @ 0xE0002010) -- CPU_WriteMem(4 bytes @ 0xE0002014) -- CPU_WriteMem(4 bytes @ 0xE0002018) -- CPU_WriteMem(4 bytes @ 0xE000201C) (0009ms, 0972ms total)
T15A0 001:554 JLINK_IsHalted() -- CPU_ReadMem(2 bytes @ 0x20000000)  returns TRUE (0006ms, 0981ms total)
T15A0 001:560 JLINK_ReadReg(R15)  returns 0x20000000 (0000ms, 0981ms total)
T15A0 001:560 JLINK_ClrBPEx(BPHandle = 0x00000004)  returns 0x00 (0000ms, 0981ms total)
T15A0 001:560 JLINK_ReadReg(R0)  returns 0x00000001 (0000ms, 0981ms total)
T15A0 001:560 JLINK_WriteReg(R0, 0x08004000)  returns 0x00 (0000ms, 0981ms total)
T15A0 001:560 JLINK_WriteReg(R1, 0x00004000)  returns 0x00 (0000ms, 0981ms total)
T15A0 001:560 JLINK_WriteReg(R2, 0x000000FF)  returns 0x00 (0000ms, 0981ms total)
T15A0 001:560 JLINK_WriteReg(R3, 0x00000000)  returns 0x00 (0000ms, 0981ms total)
T15A0 001:560 JLINK_WriteReg(R4, 0x00000000)  returns 0x00 (0000ms, 0981ms total)
T15A0 001:560 JLINK_WriteReg(R5, 0x00000000)  returns 0x00 (0000ms, 0981ms total)
T15A0 001:560 JLINK_WriteReg(R6, 0x00000000)  returns 0x00 (0000ms, 0981ms total)
T15A0 001:560 JLINK_WriteReg(R7, 0x00000000)  returns 0x00 (0000ms, 0981ms total)
T15A0 001:560 JLINK_WriteReg(R8, 0x00000000)  returns 0x00 (0000ms, 0981ms total)
T15A0 001:560 JLINK_WriteReg(R9, 0x2000017C)  returns 0x00 (0000ms, 0981ms total)
T15A0 001:560 JLINK_WriteReg(R10, 0x00000000)  returns 0x00 (0000ms, 0981ms total)
T15A0 001:560 JLINK_WriteReg(R11, 0x00000000)  returns 0x00 (0000ms, 0981ms total)
T15A0 001:560 JLINK_WriteReg(R12, 0x00000000)  returns 0x00 (0000ms, 0981ms total)
T15A0 001:560 JLINK_WriteReg(R13, 0x20000800)  returns 0x00 (0000ms, 0981ms total)
T15A0 001:560 JLINK_WriteReg(R14, 0x20000001)  returns 0x00 (0000ms, 0981ms total)
T15A0 001:560 JLINK_WriteReg(R15, 0x200000BC)  returns 0x00 (0000ms, 0981ms total)
T15A0 001:560 JLINK_WriteReg(XPSR, 0x01000000)  returns 0x00 (0000ms, 0981ms total)
T15A0 001:560 JLINK_WriteReg(MSP, 0x20000800)  returns 0x00 (0000ms, 0981ms total)
T15A0 001:560 JLINK_WriteReg(PSP, 0x20000800)  returns 0x00 (0001ms, 0981ms total)
T15A0 001:561 JLINK_WriteReg(CFBP, 0x00000000)  returns 0x00 (0000ms, 0982ms total)
T15A0 001:561 JLINK_SetBPEx(Addr = 0x20000000, Type = 0xFFFFFFF2)  returns 0x00000005 (0000ms, 0982ms total)
T15A0 001:561 JLINK_Go() -- CPU_WriteMem(4 bytes @ 0xE0002008) -- CPU_WriteMem(4 bytes @ 0xE000200C) -- CPU_WriteMem(4 bytes @ 0xE0002010) -- CPU_WriteMem(4 bytes @ 0xE0002014) -- CPU_WriteMem(4 bytes @ 0xE0002018) -- CPU_WriteMem(4 bytes @ 0xE000201C) (0008ms, 0982ms total)
T15A0 001:569 JLINK_IsHalted()  returns FALSE (0001ms, 0990ms total)
T15A0 001:620 JLINK_IsHalted()  returns FALSE (0001ms, 0990ms total)
T15A0 001:671 JLINK_IsHalted()  returns FALSE (0001ms, 0990ms total)
T15A0 001:722 JLINK_IsHalted()  returns FALSE (0001ms, 0990ms total)
T15A0 001:773 JLINK_IsHalted()  returns FALSE (0001ms, 0990ms total)
T15A0 001:824 JLINK_IsHalted()  returns FALSE (0001ms, 0990ms total)
T15A0 001:875 JLINK_IsHalted()  returns FALSE (0001ms, 0990ms total)
T15A0 001:926 JLINK_IsHalted() -- CPU_ReadMem(2 bytes @ 0x20000000)  returns TRUE (0005ms, 0990ms total)
T15A0 001:931 JLINK_ReadReg(R15)  returns 0x20000000 (0000ms, 0990ms total)
T15A0 001:931 JLINK_ClrBPEx(BPHandle = 0x00000005)  returns 0x00 (0000ms, 0990ms total)
T15A0 001:931 JLINK_ReadReg(R0)  returns 0x00000000 (0000ms, 0990ms total)
T15A0 001:932 JLINK_WriteReg(R0, 0x00000001)  returns 0x00 (0000ms, 0990ms total)
T15A0 001:932 JLINK_WriteReg(R1, 0x00004000)  returns 0x00 (0000ms, 0990ms total)
T15A0 001:932 JLINK_WriteReg(R2, 0x000000FF)  returns 0x00 (0000ms, 0990ms total)
T15A0 001:932 JLINK_WriteReg(R3, 0x00000000)  returns 0x00 (0000ms, 0990ms total)
T15A0 001:932 JLINK_WriteReg(R4, 0x00000000)  returns 0x00 (0000ms, 0990ms total)
T15A0 001:932 JLINK_WriteReg(R5, 0x00000000)  returns 0x00 (0000ms, 0990ms total)
T15A0 001:932 JLINK_WriteReg(R6, 0x00000000)  returns 0x00 (0000ms, 0990ms total)
T15A0 001:932 JLINK_WriteReg(R7, 0x00000000)  returns 0x00 (0000ms, 0990ms total)
T15A0 001:932 JLINK_WriteReg(R8, 0x00000000)  returns 0x00 (0000ms, 0990ms total)
T15A0 001:932 JLINK_WriteReg(R9, 0x2000017C)  returns 0x00 (0000ms, 0990ms total)
T15A0 001:932 JLINK_WriteReg(R10, 0x00000000)  returns 0x00 (0000ms, 0990ms total)
T15A0 001:932 JLINK_WriteReg(R11, 0x00000000)  returns 0x00 (0000ms, 0990ms total)
T15A0 001:932 JLINK_WriteReg(R12, 0x00000000)  returns 0x00 (0000ms, 0990ms total)
T15A0 001:932 JLINK_WriteReg(R13, 0x20000800)  returns 0x00 (0000ms, 0990ms total)
T15A0 001:932 JLINK_WriteReg(R14, 0x20000001)  returns 0x00 (0000ms, 0990ms total)
T15A0 001:932 JLINK_WriteReg(R15, 0x20000082)  returns 0x00 (0000ms, 0990ms total)
T15A0 001:932 JLINK_WriteReg(XPSR, 0x01000000)  returns 0x00 (0000ms, 0990ms total)
T15A0 001:932 JLINK_WriteReg(MSP, 0x20000800)  returns 0x00 (0000ms, 0990ms total)
T15A0 001:932 JLINK_WriteReg(PSP, 0x20000800)  returns 0x00 (0000ms, 0990ms total)
T15A0 001:932 JLINK_WriteReg(CFBP, 0x00000000)  returns 0x00 (0000ms, 0990ms total)
T15A0 001:932 JLINK_SetBPEx(Addr = 0x20000000, Type = 0xFFFFFFF2)  returns 0x00000006 (0001ms, 0990ms total)
T15A0 001:933 JLINK_Go() -- CPU_WriteMem(4 bytes @ 0xE0002008) -- CPU_WriteMem(4 bytes @ 0xE000200C) -- CPU_WriteMem(4 bytes @ 0xE0002010) -- CPU_WriteMem(4 bytes @ 0xE0002014) -- CPU_WriteMem(4 bytes @ 0xE0002018) -- CPU_WriteMem(4 bytes @ 0xE000201C) (0009ms, 0991ms total)
T15A0 001:942 JLINK_IsHalted() -- CPU_ReadMem(2 bytes @ 0x20000000)  returns TRUE (0005ms, 1000ms total)
T15A0 001:947 JLINK_ReadReg(R15)  returns 0x20000000 (0000ms, 1000ms total)
T15A0 001:947 JLINK_ClrBPEx(BPHandle = 0x00000006)  returns 0x00 (0000ms, 1000ms total)
T15A0 001:947 JLINK_ReadReg(R0)  returns 0x00000000 (0000ms, 1000ms total)
T15A0 002:006 JLINK_WriteMem(0x20000000, 0x0180 Bytes, ...) -- Data:  00 BE 0A E0 0D 78 2D 06 68 40 08 24 40 00 00 D3 ... -- CPU_WriteMem(384 bytes @ 0x20000000)  returns 0x180 (0005ms, 1000ms total)
T15A0 002:012 JLINK_WriteReg(R0, 0x08000000)  returns 0x00 (0001ms, 1005ms total)
T15A0 002:013 JLINK_WriteReg(R1, 0x017D7840)  returns 0x00 (0000ms, 1006ms total)
T15A0 002:013 JLINK_WriteReg(R2, 0x00000002)  returns 0x00 (0000ms, 1006ms total)
T15A0 002:013 JLINK_WriteReg(R3, 0x00000000)  returns 0x00 (0000ms, 1006ms total)
T15A0 002:013 JLINK_WriteReg(R4, 0x00000000)  returns 0x00 (0000ms, 1006ms total)
T15A0 002:013 JLINK_WriteReg(R5, 0x00000000)  returns 0x00 (0000ms, 1006ms total)
T15A0 002:013 JLINK_WriteReg(R6, 0x00000000)  returns 0x00 (0000ms, 1006ms total)
T15A0 002:013 JLINK_WriteReg(R7, 0x00000000)  returns 0x00 (0000ms, 1006ms total)
T15A0 002:013 JLINK_WriteReg(R8, 0x00000000)  returns 0x00 (0000ms, 1006ms total)
T15A0 002:013 JLINK_WriteReg(R9, 0x2000017C)  returns 0x00 (0000ms, 1006ms total)
T15A0 002:013 JLINK_WriteReg(R10, 0x00000000)  returns 0x00 (0000ms, 1006ms total)
T15A0 002:013 JLINK_WriteReg(R11, 0x00000000)  returns 0x00 (0000ms, 1006ms total)
T15A0 002:013 JLINK_WriteReg(R12, 0x00000000)  returns 0x00 (0000ms, 1006ms total)
T15A0 002:013 JLINK_WriteReg(R13, 0x20000800)  returns 0x00 (0000ms, 1006ms total)
T15A0 002:013 JLINK_WriteReg(R14, 0x20000001)  returns 0x00 (0000ms, 1006ms total)
T15A0 002:013 JLINK_WriteReg(R15, 0x20000054)  returns 0x00 (0000ms, 1006ms total)
T15A0 002:013 JLINK_WriteReg(XPSR, 0x01000000)  returns 0x00 (0000ms, 1006ms total)
T15A0 002:013 JLINK_WriteReg(MSP, 0x20000800)  returns 0x00 (0000ms, 1006ms total)
T15A0 002:013 JLINK_WriteReg(PSP, 0x20000800)  returns 0x00 (0001ms, 1006ms total)
T15A0 002:014 JLINK_WriteReg(CFBP, 0x00000000)  returns 0x00 (0000ms, 1007ms total)
T15A0 002:014 JLINK_SetBPEx(Addr = 0x20000000, Type = 0xFFFFFFF2) -- CPU_ReadMem(2 bytes @ 0x20000000)  returns 0x00000007 (0001ms, 1007ms total)
T15A0 002:015 JLINK_Go() -- CPU_WriteMem(2 bytes @ 0x20000000) -- CPU_WriteMem(4 bytes @ 0xE0002008) -- CPU_WriteMem(4 bytes @ 0xE000200C) -- CPU_WriteMem(4 bytes @ 0xE0002010) -- CPU_WriteMem(4 bytes @ 0xE0002014) -- CPU_WriteMem(4 bytes @ 0xE0002018) -- CPU_WriteMem(4 bytes @ 0xE000201C) (0010ms, 1008ms total)
T15A0 002:025 JLINK_IsHalted() -- CPU_ReadMem(2 bytes @ 0x20000000)  returns TRUE (0005ms, 1018ms total)
T15A0 002:030 JLINK_ReadReg(R15)  returns 0x20000000 (0000ms, 1018ms total)
T15A0 002:030 JLINK_ClrBPEx(BPHandle = 0x00000007)  returns 0x00 (0000ms, 1018ms total)
T15A0 002:030 JLINK_ReadReg(R0)  returns 0x00000000 (0000ms, 1018ms total)
T15A0 002:031 JLINK_WriteMem(0x20000180, 0x0400 Bytes, ...) -- Data:  40 09 00 20 59 07 00 08 67 02 00 08 69 02 00 08 ... -- CPU_WriteMem(1024 bytes @ 0x20000180)  returns 0x400 (0011ms, 1018ms total)
T15A0 002:042 JLINK_WriteReg(R0, 0x08000000)  returns 0x00 (0000ms, 1029ms total)
T15A0 002:042 JLINK_WriteReg(R1, 0x00000400)  returns 0x00 (0000ms, 1029ms total)
T15A0 002:042 JLINK_WriteReg(R2, 0x20000180)  returns 0x00 (0000ms, 1029ms total)
T15A0 002:042 JLINK_WriteReg(R3, 0x00000000)  returns 0x00 (0000ms, 1029ms total)
T15A0 002:042 JLINK_WriteReg(R4, 0x00000000)  returns 0x00 (0000ms, 1029ms total)
T15A0 002:042 JLINK_WriteReg(R5, 0x00000000)  returns 0x00 (0000ms, 1029ms total)
T15A0 002:042 JLINK_WriteReg(R6, 0x00000000)  returns 0x00 (0000ms, 1029ms total)
T15A0 002:042 JLINK_WriteReg(R7, 0x00000000)  returns 0x00 (0000ms, 1029ms total)
T15A0 002:042 JLINK_WriteReg(R8, 0x00000000)  returns 0x00 (0000ms, 1029ms total)
T15A0 002:042 JLINK_WriteReg(R9, 0x2000017C)  returns 0x00 (0000ms, 1029ms total)
T15A0 002:042 JLINK_WriteReg(R10, 0x00000000)  returns 0x00 (0000ms, 1029ms total)
T15A0 002:042 JLINK_WriteReg(R11, 0x00000000)  returns 0x00 (0000ms, 1029ms total)
T15A0 002:042 JLINK_WriteReg(R12, 0x00000000)  returns 0x00 (0001ms, 1029ms total)
T15A0 002:043 JLINK_WriteReg(R13, 0x20000800)  returns 0x00 (0000ms, 1030ms total)
T15A0 002:043 JLINK_WriteReg(R14, 0x20000001)  returns 0x00 (0000ms, 1030ms total)
T15A0 002:043 JLINK_WriteReg(R15, 0x20000108)  returns 0x00 (0000ms, 1030ms total)
T15A0 002:043 JLINK_WriteReg(XPSR, 0x01000000)  returns 0x00 (0000ms, 1030ms total)
T15A0 002:043 JLINK_WriteReg(MSP, 0x20000800)  returns 0x00 (0000ms, 1030ms total)
T15A0 002:043 JLINK_WriteReg(PSP, 0x20000800)  returns 0x00 (0000ms, 1030ms total)
T15A0 002:043 JLINK_WriteReg(CFBP, 0x00000000)  returns 0x00 (0000ms, 1030ms total)
T15A0 002:043 JLINK_SetBPEx(Addr = 0x20000000, Type = 0xFFFFFFF2)  returns 0x00000008 (0000ms, 1030ms total)
T15A0 002:043 JLINK_Go() -- CPU_WriteMem(4 bytes @ 0xE0002008) -- CPU_WriteMem(4 bytes @ 0xE000200C) -- CPU_WriteMem(4 bytes @ 0xE0002010) -- CPU_WriteMem(4 bytes @ 0xE0002014) -- CPU_WriteMem(4 bytes @ 0xE0002018) -- CPU_WriteMem(4 bytes @ 0xE000201C) (0009ms, 1030ms total)
T15A0 002:052 JLINK_IsHalted()  returns FALSE (0001ms, 1039ms total)
T15A0 002:103 JLINK_IsHalted() -- CPU_ReadMem(2 bytes @ 0x20000000)  returns TRUE (0005ms, 1039ms total)
T15A0 002:108 JLINK_ReadReg(R15)  returns 0x20000000 (0000ms, 1039ms total)
T15A0 002:108 JLINK_ClrBPEx(BPHandle = 0x00000008)  returns 0x00 (0000ms, 1039ms total)
T15A0 002:108 JLINK_ReadReg(R0)  returns 0x00000000 (0000ms, 1039ms total)
T15A0 002:109 JLINK_WriteMem(0x20000180, 0x0400 Bytes, ...) -- Data:  1A 4C B4 FB F1 F4 12 4D 2D 1D 2D 68 C5 F3 88 15 ... -- CPU_WriteMem(1024 bytes @ 0x20000180)  returns 0x400 (0011ms, 1039ms total)
T15A0 002:120 JLINK_WriteReg(R0, 0x08000400)  returns 0x00 (0000ms, 1050ms total)
T15A0 002:121 JLINK_WriteReg(R1, 0x00000400)  returns 0x00 (0000ms, 1050ms total)
T15A0 002:121 JLINK_WriteReg(R2, 0x20000180)  returns 0x00 (0000ms, 1050ms total)
T15A0 002:121 JLINK_WriteReg(R3, 0x00000000)  returns 0x00 (0000ms, 1050ms total)
T15A0 002:121 JLINK_WriteReg(R4, 0x00000000)  returns 0x00 (0000ms, 1050ms total)
T15A0 002:121 JLINK_WriteReg(R5, 0x00000000)  returns 0x00 (0000ms, 1050ms total)
T15A0 002:121 JLINK_WriteReg(R6, 0x00000000)  returns 0x00 (0000ms, 1050ms total)
T15A0 002:121 JLINK_WriteReg(R7, 0x00000000)  returns 0x00 (0000ms, 1050ms total)
T15A0 002:121 JLINK_WriteReg(R8, 0x00000000)  returns 0x00 (0000ms, 1050ms total)
T15A0 002:121 JLINK_WriteReg(R9, 0x2000017C)  returns 0x00 (0000ms, 1050ms total)
T15A0 002:121 JLINK_WriteReg(R10, 0x00000000)  returns 0x00 (0000ms, 1050ms total)
T15A0 002:121 JLINK_WriteReg(R11, 0x00000000)  returns 0x00 (0000ms, 1050ms total)
T15A0 002:121 JLINK_WriteReg(R12, 0x00000000)  returns 0x00 (0000ms, 1050ms total)
T15A0 002:121 JLINK_WriteReg(R13, 0x20000800)  returns 0x00 (0000ms, 1050ms total)
T15A0 002:121 JLINK_WriteReg(R14, 0x20000001)  returns 0x00 (0000ms, 1050ms total)
T15A0 002:121 JLINK_WriteReg(R15, 0x20000108)  returns 0x00 (0000ms, 1050ms total)
T15A0 002:121 JLINK_WriteReg(XPSR, 0x01000000)  returns 0x00 (0000ms, 1050ms total)
T15A0 002:121 JLINK_WriteReg(MSP, 0x20000800)  returns 0x00 (0000ms, 1050ms total)
T15A0 002:121 JLINK_WriteReg(PSP, 0x20000800)  returns 0x00 (0000ms, 1050ms total)
T15A0 002:121 JLINK_WriteReg(CFBP, 0x00000000)  returns 0x00 (0000ms, 1050ms total)
T15A0 002:121 JLINK_SetBPEx(Addr = 0x20000000, Type = 0xFFFFFFF2)  returns 0x00000009 (0000ms, 1050ms total)
T15A0 002:121 JLINK_Go() -- CPU_WriteMem(4 bytes @ 0xE0002008) -- CPU_WriteMem(4 bytes @ 0xE000200C) -- CPU_WriteMem(4 bytes @ 0xE0002010) -- CPU_WriteMem(4 bytes @ 0xE0002014) -- CPU_WriteMem(4 bytes @ 0xE0002018) -- CPU_WriteMem(4 bytes @ 0xE000201C) (0010ms, 1050ms total)
T15A0 002:131 JLINK_IsHalted()  returns FALSE (0001ms, 1060ms total)
T15A0 002:182 JLINK_IsHalted() -- CPU_ReadMem(2 bytes @ 0x20000000)  returns TRUE (0005ms, 1060ms total)
T15A0 002:187 JLINK_ReadReg(R15)  returns 0x20000000 (0000ms, 1060ms total)
T15A0 002:187 JLINK_ClrBPEx(BPHandle = 0x00000009)  returns 0x00 (0000ms, 1060ms total)
T15A0 002:187 JLINK_ReadReg(R0)  returns 0x00000000 (0000ms, 1060ms total)
T15A0 002:188 JLINK_WriteMem(0x20000180, 0x0400 Bytes, ...) -- Data:  AC 40 1C 4D 06 78 76 11 45 F8 26 40 70 BD 1A 4A ... -- CPU_WriteMem(1024 bytes @ 0x20000180)  returns 0x400 (0012ms, 1060ms total)
T15A0 002:200 JLINK_WriteReg(R0, 0x08000800)  returns 0x00 (0000ms, 1072ms total)
T15A0 002:200 JLINK_WriteReg(R1, 0x00000400)  returns 0x00 (0000ms, 1072ms total)
T15A0 002:200 JLINK_WriteReg(R2, 0x20000180)  returns 0x00 (0000ms, 1072ms total)
T15A0 002:200 JLINK_WriteReg(R3, 0x00000000)  returns 0x00 (0000ms, 1072ms total)
T15A0 002:200 JLINK_WriteReg(R4, 0x00000000)  returns 0x00 (0000ms, 1072ms total)
T15A0 002:200 JLINK_WriteReg(R5, 0x00000000)  returns 0x00 (0000ms, 1072ms total)
T15A0 002:200 JLINK_WriteReg(R6, 0x00000000)  returns 0x00 (0000ms, 1072ms total)
T15A0 002:200 JLINK_WriteReg(R7, 0x00000000)  returns 0x00 (0000ms, 1072ms total)
T15A0 002:200 JLINK_WriteReg(R8, 0x00000000)  returns 0x00 (0000ms, 1072ms total)
T15A0 002:200 JLINK_WriteReg(R9, 0x2000017C)  returns 0x00 (0000ms, 1072ms total)
T15A0 002:200 JLINK_WriteReg(R10, 0x00000000)  returns 0x00 (0000ms, 1072ms total)
T15A0 002:200 JLINK_WriteReg(R11, 0x00000000)  returns 0x00 (0000ms, 1072ms total)
T15A0 002:200 JLINK_WriteReg(R12, 0x00000000)  returns 0x00 (0000ms, 1072ms total)
T15A0 002:200 JLINK_WriteReg(R13, 0x20000800)  returns 0x00 (0000ms, 1072ms total)
T15A0 002:200 JLINK_WriteReg(R14, 0x20000001)  returns 0x00 (0000ms, 1072ms total)
T15A0 002:200 JLINK_WriteReg(R15, 0x20000108)  returns 0x00 (0000ms, 1072ms total)
T15A0 002:200 JLINK_WriteReg(XPSR, 0x01000000)  returns 0x00 (0000ms, 1072ms total)
T15A0 002:200 JLINK_WriteReg(MSP, 0x20000800)  returns 0x00 (0001ms, 1072ms total)
T15A0 002:201 JLINK_WriteReg(PSP, 0x20000800)  returns 0x00 (0000ms, 1073ms total)
T15A0 002:201 JLINK_WriteReg(CFBP, 0x00000000)  returns 0x00 (0000ms, 1073ms total)
T15A0 002:201 JLINK_SetBPEx(Addr = 0x20000000, Type = 0xFFFFFFF2)  returns 0x0000000A (0000ms, 1073ms total)
T15A0 002:201 JLINK_Go() -- CPU_WriteMem(4 bytes @ 0xE0002008) -- CPU_WriteMem(4 bytes @ 0xE000200C) -- CPU_WriteMem(4 bytes @ 0xE0002010) -- CPU_WriteMem(4 bytes @ 0xE0002014) -- CPU_WriteMem(4 bytes @ 0xE0002018) -- CPU_WriteMem(4 bytes @ 0xE000201C) (0009ms, 1073ms total)
T15A0 002:210 JLINK_IsHalted()  returns FALSE (0001ms, 1082ms total)
T15A0 002:261 JLINK_IsHalted() -- CPU_ReadMem(2 bytes @ 0x20000000)  returns TRUE (0005ms, 1082ms total)
T15A0 002:266 JLINK_ReadReg(R15)  returns 0x20000000 (0000ms, 1082ms total)
T15A0 002:266 JLINK_ClrBPEx(BPHandle = 0x0000000A)  returns 0x00 (0000ms, 1082ms total)
T15A0 002:266 JLINK_ReadReg(R0)  returns 0x00000000 (0000ms, 1082ms total)
T15A0 002:267 JLINK_WriteMem(0x20000180, 0x0400 Bytes, ...) -- Data:  0C 68 43 EA 44 53 02 F5 C0 74 04 EB 00 14 24 68 ... -- CPU_WriteMem(1024 bytes @ 0x20000180)  returns 0x400 (0011ms, 1082ms total)
T15A0 002:278 JLINK_WriteReg(R0, 0x08000C00)  returns 0x00 (0000ms, 1093ms total)
T15A0 002:278 JLINK_WriteReg(R1, 0x00000400)  returns 0x00 (0000ms, 1093ms total)
T15A0 002:278 JLINK_WriteReg(R2, 0x20000180)  returns 0x00 (0000ms, 1093ms total)
T15A0 002:278 JLINK_WriteReg(R3, 0x00000000)  returns 0x00 (0001ms, 1093ms total)
T15A0 002:279 JLINK_WriteReg(R4, 0x00000000)  returns 0x00 (0000ms, 1094ms total)
T15A0 002:279 JLINK_WriteReg(R5, 0x00000000)  returns 0x00 (0000ms, 1094ms total)
T15A0 002:279 JLINK_WriteReg(R6, 0x00000000)  returns 0x00 (0000ms, 1094ms total)
T15A0 002:279 JLINK_WriteReg(R7, 0x00000000)  returns 0x00 (0000ms, 1094ms total)
T15A0 002:279 JLINK_WriteReg(R8, 0x00000000)  returns 0x00 (0000ms, 1094ms total)
T15A0 002:279 JLINK_WriteReg(R9, 0x2000017C)  returns 0x00 (0000ms, 1094ms total)
T15A0 002:279 JLINK_WriteReg(R10, 0x00000000)  returns 0x00 (0000ms, 1094ms total)
T15A0 002:279 JLINK_WriteReg(R11, 0x00000000)  returns 0x00 (0000ms, 1094ms total)
T15A0 002:279 JLINK_WriteReg(R12, 0x00000000)  returns 0x00 (0000ms, 1094ms total)
T15A0 002:279 JLINK_WriteReg(R13, 0x20000800)  returns 0x00 (0000ms, 1094ms total)
T15A0 002:279 JLINK_WriteReg(R14, 0x20000001)  returns 0x00 (0000ms, 1094ms total)
T15A0 002:279 JLINK_WriteReg(R15, 0x20000108)  returns 0x00 (0000ms, 1094ms total)
T15A0 002:279 JLINK_WriteReg(XPSR, 0x01000000)  returns 0x00 (0000ms, 1094ms total)
T15A0 002:279 JLINK_WriteReg(MSP, 0x20000800)  returns 0x00 (0000ms, 1094ms total)
T15A0 002:279 JLINK_WriteReg(PSP, 0x20000800)  returns 0x00 (0000ms, 1094ms total)
T15A0 002:279 JLINK_WriteReg(CFBP, 0x00000000)  returns 0x00 (0000ms, 1094ms total)
T15A0 002:279 JLINK_SetBPEx(Addr = 0x20000000, Type = 0xFFFFFFF2)  returns 0x0000000B (0000ms, 1094ms total)
T15A0 002:279 JLINK_Go() -- CPU_WriteMem(4 bytes @ 0xE0002008) -- CPU_WriteMem(4 bytes @ 0xE000200C) -- CPU_WriteMem(4 bytes @ 0xE0002010) -- CPU_WriteMem(4 bytes @ 0xE0002014) -- CPU_WriteMem(4 bytes @ 0xE0002018) -- CPU_WriteMem(4 bytes @ 0xE000201C) (0009ms, 1094ms total)
T15A0 002:288 JLINK_IsHalted()  returns FALSE (0001ms, 1103ms total)
T15A0 002:339 JLINK_IsHalted() -- CPU_ReadMem(2 bytes @ 0x20000000)  returns TRUE (0005ms, 1103ms total)
T15A0 002:344 JLINK_ReadReg(R15)  returns 0x20000000 (0000ms, 1103ms total)
T15A0 002:344 JLINK_ClrBPEx(BPHandle = 0x0000000B)  returns 0x00 (0000ms, 1103ms total)
T15A0 002:344 JLINK_ReadReg(R0)  returns 0x00000000 (0000ms, 1103ms total)
T15A0 002:345 JLINK_WriteMem(0x20000180, 0x0400 Bytes, ...) -- Data:  C1 F3 13 04 23 42 01 D0 01 20 21 E0 00 20 1F E0 ... -- CPU_WriteMem(1024 bytes @ 0x20000180)  returns 0x400 (0011ms, 1103ms total)
T15A0 002:356 JLINK_WriteReg(R0, 0x08001000)  returns 0x00 (0000ms, 1114ms total)
T15A0 002:356 JLINK_WriteReg(R1, 0x00000400)  returns 0x00 (0000ms, 1114ms total)
T15A0 002:356 JLINK_WriteReg(R2, 0x20000180)  returns 0x00 (0000ms, 1114ms total)
T15A0 002:356 JLINK_WriteReg(R3, 0x00000000)  returns 0x00 (0000ms, 1114ms total)
T15A0 002:356 JLINK_WriteReg(R4, 0x00000000)  returns 0x00 (0000ms, 1114ms total)
T15A0 002:356 JLINK_WriteReg(R5, 0x00000000)  returns 0x00 (0000ms, 1114ms total)
T15A0 002:356 JLINK_WriteReg(R6, 0x00000000)  returns 0x00 (0000ms, 1114ms total)
T15A0 002:356 JLINK_WriteReg(R7, 0x00000000)  returns 0x00 (0000ms, 1114ms total)
T15A0 002:356 JLINK_WriteReg(R8, 0x00000000)  returns 0x00 (0000ms, 1114ms total)
T15A0 002:356 JLINK_WriteReg(R9, 0x2000017C)  returns 0x00 (0000ms, 1114ms total)
T15A0 002:356 JLINK_WriteReg(R10, 0x00000000)  returns 0x00 (0000ms, 1114ms total)
T15A0 002:356 JLINK_WriteReg(R11, 0x00000000)  returns 0x00 (0000ms, 1114ms total)
T15A0 002:356 JLINK_WriteReg(R12, 0x00000000)  returns 0x00 (0001ms, 1114ms total)
T15A0 002:357 JLINK_WriteReg(R13, 0x20000800)  returns 0x00 (0000ms, 1115ms total)
T15A0 002:357 JLINK_WriteReg(R14, 0x20000001)  returns 0x00 (0000ms, 1115ms total)
T15A0 002:357 JLINK_WriteReg(R15, 0x20000108)  returns 0x00 (0000ms, 1115ms total)
T15A0 002:357 JLINK_WriteReg(XPSR, 0x01000000)  returns 0x00 (0000ms, 1115ms total)
T15A0 002:357 JLINK_WriteReg(MSP, 0x20000800)  returns 0x00 (0000ms, 1115ms total)
T15A0 002:357 JLINK_WriteReg(PSP, 0x20000800)  returns 0x00 (0000ms, 1115ms total)
T15A0 002:357 JLINK_WriteReg(CFBP, 0x00000000)  returns 0x00 (0000ms, 1115ms total)
T15A0 002:357 JLINK_SetBPEx(Addr = 0x20000000, Type = 0xFFFFFFF2)  returns 0x0000000C (0000ms, 1115ms total)
T15A0 002:357 JLINK_Go() -- CPU_WriteMem(4 bytes @ 0xE0002008) -- CPU_WriteMem(4 bytes @ 0xE000200C) -- CPU_WriteMem(4 bytes @ 0xE0002010) -- CPU_WriteMem(4 bytes @ 0xE0002014) -- CPU_WriteMem(4 bytes @ 0xE0002018) -- CPU_WriteMem(4 bytes @ 0xE000201C) (0009ms, 1115ms total)
T15A0 002:366 JLINK_IsHalted()  returns FALSE (0001ms, 1124ms total)
T15A0 002:417 JLINK_IsHalted() -- CPU_ReadMem(2 bytes @ 0x20000000)  returns TRUE (0005ms, 1124ms total)
T15A0 002:422 JLINK_ReadReg(R15)  returns 0x20000000 (0000ms, 1124ms total)
T15A0 002:422 JLINK_ClrBPEx(BPHandle = 0x0000000C)  returns 0x00 (0000ms, 1124ms total)
T15A0 002:422 JLINK_ReadReg(R0)  returns 0x00000000 (0000ms, 1124ms total)
T15A0 002:423 JLINK_WriteMem(0x20000180, 0x0400 Bytes, ...) -- Data:  08 D1 01 21 20 20 00 F0 3A FB 00 21 20 20 00 F0 ... -- CPU_WriteMem(1024 bytes @ 0x20000180)  returns 0x400 (0011ms, 1124ms total)
T15A0 002:434 JLINK_WriteReg(R0, 0x08001400)  returns 0x00 (0000ms, 1135ms total)
T15A0 002:434 JLINK_WriteReg(R1, 0x00000400)  returns 0x00 (0000ms, 1135ms total)
T15A0 002:434 JLINK_WriteReg(R2, 0x20000180)  returns 0x00 (0000ms, 1135ms total)
T15A0 002:434 JLINK_WriteReg(R3, 0x00000000)  returns 0x00 (0000ms, 1135ms total)
T15A0 002:434 JLINK_WriteReg(R4, 0x00000000)  returns 0x00 (0000ms, 1135ms total)
T15A0 002:434 JLINK_WriteReg(R5, 0x00000000)  returns 0x00 (0000ms, 1135ms total)
T15A0 002:434 JLINK_WriteReg(R6, 0x00000000)  returns 0x00 (0000ms, 1135ms total)
T15A0 002:434 JLINK_WriteReg(R7, 0x00000000)  returns 0x00 (0000ms, 1135ms total)
T15A0 002:434 JLINK_WriteReg(R8, 0x00000000)  returns 0x00 (0000ms, 1135ms total)
T15A0 002:434 JLINK_WriteReg(R9, 0x2000017C)  returns 0x00 (0000ms, 1135ms total)
T15A0 002:434 JLINK_WriteReg(R10, 0x00000000)  returns 0x00 (0000ms, 1135ms total)
T15A0 002:434 JLINK_WriteReg(R11, 0x00000000)  returns 0x00 (0000ms, 1135ms total)
T15A0 002:434 JLINK_WriteReg(R12, 0x00000000)  returns 0x00 (0000ms, 1135ms total)
T15A0 002:434 JLINK_WriteReg(R13, 0x20000800)  returns 0x00 (0000ms, 1135ms total)
T15A0 002:434 JLINK_WriteReg(R14, 0x20000001)  returns 0x00 (0001ms, 1135ms total)
T15A0 002:435 JLINK_WriteReg(R15, 0x20000108)  returns 0x00 (0000ms, 1136ms total)
T15A0 002:435 JLINK_WriteReg(XPSR, 0x01000000)  returns 0x00 (0000ms, 1136ms total)
T15A0 002:435 JLINK_WriteReg(MSP, 0x20000800)  returns 0x00 (0000ms, 1136ms total)
T15A0 002:435 JLINK_WriteReg(PSP, 0x20000800)  returns 0x00 (0000ms, 1136ms total)
T15A0 002:435 JLINK_WriteReg(CFBP, 0x00000000)  returns 0x00 (0000ms, 1136ms total)
T15A0 002:435 JLINK_SetBPEx(Addr = 0x20000000, Type = 0xFFFFFFF2)  returns 0x0000000D (0000ms, 1136ms total)
T15A0 002:435 JLINK_Go() -- CPU_WriteMem(4 bytes @ 0xE0002008) -- CPU_WriteMem(4 bytes @ 0xE000200C) -- CPU_WriteMem(4 bytes @ 0xE0002010) -- CPU_WriteMem(4 bytes @ 0xE0002014) -- CPU_WriteMem(4 bytes @ 0xE0002018) -- CPU_WriteMem(4 bytes @ 0xE000201C) (0009ms, 1136ms total)
T15A0 002:444 JLINK_IsHalted()  returns FALSE (0001ms, 1145ms total)
T15A0 002:495 JLINK_IsHalted() -- CPU_ReadMem(2 bytes @ 0x20000000)  returns TRUE (0005ms, 1145ms total)
T15A0 002:500 JLINK_ReadReg(R15)  returns 0x20000000 (0000ms, 1145ms total)
T15A0 002:500 JLINK_ClrBPEx(BPHandle = 0x0000000D)  returns 0x00 (0001ms, 1145ms total)
T15A0 002:501 JLINK_ReadReg(R0)  returns 0x00000000 (0000ms, 1146ms total)
T15A0 002:501 JLINK_WriteMem(0x20000180, 0x0400 Bytes, ...) -- Data:  08 32 10 68 20 F4 60 40 40 EA C1 00 10 60 70 47 ... -- CPU_WriteMem(1024 bytes @ 0x20000180)  returns 0x400 (0012ms, 1146ms total)
T15A0 002:513 JLINK_WriteReg(R0, 0x08001800)  returns 0x00 (0000ms, 1158ms total)
T15A0 002:513 JLINK_WriteReg(R1, 0x00000400)  returns 0x00 (0000ms, 1158ms total)
T15A0 002:513 JLINK_WriteReg(R2, 0x20000180)  returns 0x00 (0000ms, 1158ms total)
T15A0 002:513 JLINK_WriteReg(R3, 0x00000000)  returns 0x00 (0000ms, 1158ms total)
T15A0 002:513 JLINK_WriteReg(R4, 0x00000000)  returns 0x00 (0000ms, 1158ms total)
T15A0 002:513 JLINK_WriteReg(R5, 0x00000000)  returns 0x00 (0000ms, 1158ms total)
T15A0 002:513 JLINK_WriteReg(R6, 0x00000000)  returns 0x00 (0000ms, 1158ms total)
T15A0 002:513 JLINK_WriteReg(R7, 0x00000000)  returns 0x00 (0000ms, 1158ms total)
T15A0 002:513 JLINK_WriteReg(R8, 0x00000000)  returns 0x00 (0000ms, 1158ms total)
T15A0 002:513 JLINK_WriteReg(R9, 0x2000017C)  returns 0x00 (0000ms, 1158ms total)
T15A0 002:513 JLINK_WriteReg(R10, 0x00000000)  returns 0x00 (0000ms, 1158ms total)
T15A0 002:513 JLINK_WriteReg(R11, 0x00000000)  returns 0x00 (0000ms, 1158ms total)
T15A0 002:513 JLINK_WriteReg(R12, 0x00000000)  returns 0x00 (0000ms, 1158ms total)
T15A0 002:513 JLINK_WriteReg(R13, 0x20000800)  returns 0x00 (0000ms, 1158ms total)
T15A0 002:513 JLINK_WriteReg(R14, 0x20000001)  returns 0x00 (0000ms, 1158ms total)
T15A0 002:513 JLINK_WriteReg(R15, 0x20000108)  returns 0x00 (0000ms, 1158ms total)
T15A0 002:513 JLINK_WriteReg(XPSR, 0x01000000)  returns 0x00 (0000ms, 1158ms total)
T15A0 002:513 JLINK_WriteReg(MSP, 0x20000800)  returns 0x00 (0000ms, 1158ms total)
T15A0 002:513 JLINK_WriteReg(PSP, 0x20000800)  returns 0x00 (0000ms, 1158ms total)
T15A0 002:513 JLINK_WriteReg(CFBP, 0x00000000)  returns 0x00 (0000ms, 1158ms total)
T15A0 002:513 JLINK_SetBPEx(Addr = 0x20000000, Type = 0xFFFFFFF2)  returns 0x0000000E (0000ms, 1158ms total)
T15A0 002:513 JLINK_Go() -- CPU_WriteMem(4 bytes @ 0xE0002008) -- CPU_WriteMem(4 bytes @ 0xE000200C) -- CPU_WriteMem(4 bytes @ 0xE0002010) -- CPU_WriteMem(4 bytes @ 0xE0002014) -- CPU_WriteMem(4 bytes @ 0xE0002018) -- CPU_WriteMem(4 bytes @ 0xE000201C) (0010ms, 1158ms total)
T15A0 002:523 JLINK_IsHalted()  returns FALSE (0001ms, 1168ms total)
T15A0 002:574 JLINK_IsHalted() -- CPU_ReadMem(2 bytes @ 0x20000000)  returns TRUE (0005ms, 1168ms total)
T15A0 002:579 JLINK_ReadReg(R15)  returns 0x20000000 (0000ms, 1168ms total)
T15A0 002:579 JLINK_ClrBPEx(BPHandle = 0x0000000E)  returns 0x00 (0000ms, 1168ms total)
T15A0 002:579 JLINK_ReadReg(R0)  returns 0x00000000 (0000ms, 1168ms total)
T15A0 002:580 JLINK_WriteMem(0x20000180, 0x0400 Bytes, ...) -- Data:  12 78 02 43 12 4B 2B 3B 1A 70 08 E0 10 4A 2B 3A ... -- CPU_WriteMem(1024 bytes @ 0x20000180)  returns 0x400 (0012ms, 1168ms total)
T15A0 002:592 JLINK_WriteReg(R0, 0x08001C00)  returns 0x00 (0000ms, 1180ms total)
T15A0 002:592 JLINK_WriteReg(R1, 0x00000400)  returns 0x00 (0000ms, 1180ms total)
T15A0 002:592 JLINK_WriteReg(R2, 0x20000180)  returns 0x00 (0000ms, 1180ms total)
T15A0 002:592 JLINK_WriteReg(R3, 0x00000000)  returns 0x00 (0000ms, 1180ms total)
T15A0 002:592 JLINK_WriteReg(R4, 0x00000000)  returns 0x00 (0000ms, 1180ms total)
T15A0 002:592 JLINK_WriteReg(R5, 0x00000000)  returns 0x00 (0000ms, 1180ms total)
T15A0 002:592 JLINK_WriteReg(R6, 0x00000000)  returns 0x00 (0000ms, 1180ms total)
T15A0 002:592 JLINK_WriteReg(R7, 0x00000000)  returns 0x00 (0000ms, 1180ms total)
T15A0 002:592 JLINK_WriteReg(R8, 0x00000000)  returns 0x00 (0000ms, 1180ms total)
T15A0 002:592 JLINK_WriteReg(R9, 0x2000017C)  returns 0x00 (0000ms, 1180ms total)
T15A0 002:592 JLINK_WriteReg(R10, 0x00000000)  returns 0x00 (0000ms, 1180ms total)
T15A0 002:592 JLINK_WriteReg(R11, 0x00000000)  returns 0x00 (0000ms, 1180ms total)
T15A0 002:592 JLINK_WriteReg(R12, 0x00000000)  returns 0x00 (0000ms, 1180ms total)
T15A0 002:592 JLINK_WriteReg(R13, 0x20000800)  returns 0x00 (0000ms, 1180ms total)
T15A0 002:592 JLINK_WriteReg(R14, 0x20000001)  returns 0x00 (0000ms, 1180ms total)
T15A0 002:592 JLINK_WriteReg(R15, 0x20000108)  returns 0x00 (0000ms, 1180ms total)
T15A0 002:592 JLINK_WriteReg(XPSR, 0x01000000)  returns 0x00 (0000ms, 1180ms total)
T15A0 002:592 JLINK_WriteReg(MSP, 0x20000800)  returns 0x00 (0001ms, 1180ms total)
T15A0 002:593 JLINK_WriteReg(PSP, 0x20000800)  returns 0x00 (0000ms, 1181ms total)
T15A0 002:593 JLINK_WriteReg(CFBP, 0x00000000)  returns 0x00 (0000ms, 1181ms total)
T15A0 002:593 JLINK_SetBPEx(Addr = 0x20000000, Type = 0xFFFFFFF2)  returns 0x0000000F (0000ms, 1181ms total)
T15A0 002:593 JLINK_Go() -- CPU_WriteMem(4 bytes @ 0xE0002008) -- CPU_WriteMem(4 bytes @ 0xE000200C) -- CPU_WriteMem(4 bytes @ 0xE0002010) -- CPU_WriteMem(4 bytes @ 0xE0002014) -- CPU_WriteMem(4 bytes @ 0xE0002018) -- CPU_WriteMem(4 bytes @ 0xE000201C) (0009ms, 1181ms total)
T15A0 002:602 JLINK_IsHalted()  returns FALSE (0001ms, 1190ms total)
T15A0 002:653 JLINK_IsHalted() -- CPU_ReadMem(2 bytes @ 0x20000000)  returns TRUE (0005ms, 1190ms total)
T15A0 002:658 JLINK_ReadReg(R15)  returns 0x20000000 (0000ms, 1190ms total)
T15A0 002:658 JLINK_ClrBPEx(BPHandle = 0x0000000F)  returns 0x00 (0000ms, 1190ms total)
T15A0 002:658 JLINK_ReadReg(R0)  returns 0x00000000 (0000ms, 1190ms total)
T15A0 002:659 JLINK_WriteMem(0x20000180, 0x0400 Bytes, ...) -- Data:  04 84 02 8C 83 88 B0 F8 18 C0 48 F6 FF 74 0C EA ... -- CPU_WriteMem(1024 bytes @ 0x20000180)  returns 0x400 (0011ms, 1190ms total)
T15A0 002:670 JLINK_WriteReg(R0, 0x08002000)  returns 0x00 (0000ms, 1201ms total)
T15A0 002:670 JLINK_WriteReg(R1, 0x00000400)  returns 0x00 (0000ms, 1201ms total)
T15A0 002:670 JLINK_WriteReg(R2, 0x20000180)  returns 0x00 (0000ms, 1201ms total)
T15A0 002:670 JLINK_WriteReg(R3, 0x00000000)  returns 0x00 (0000ms, 1201ms total)
T15A0 002:670 JLINK_WriteReg(R4, 0x00000000)  returns 0x00 (0000ms, 1201ms total)
T15A0 002:670 JLINK_WriteReg(R5, 0x00000000)  returns 0x00 (0000ms, 1201ms total)
T15A0 002:670 JLINK_WriteReg(R6, 0x00000000)  returns 0x00 (0000ms, 1201ms total)
T15A0 002:670 JLINK_WriteReg(R7, 0x00000000)  returns 0x00 (0000ms, 1201ms total)
T15A0 002:670 JLINK_WriteReg(R8, 0x00000000)  returns 0x00 (0000ms, 1201ms total)
T15A0 002:670 JLINK_WriteReg(R9, 0x2000017C)  returns 0x00 (0000ms, 1201ms total)
T15A0 002:670 JLINK_WriteReg(R10, 0x00000000)  returns 0x00 (0000ms, 1201ms total)
T15A0 002:670 JLINK_WriteReg(R11, 0x00000000)  returns 0x00 (0000ms, 1201ms total)
T15A0 002:670 JLINK_WriteReg(R12, 0x00000000)  returns 0x00 (0000ms, 1201ms total)
T15A0 002:670 JLINK_WriteReg(R13, 0x20000800)  returns 0x00 (0001ms, 1201ms total)
T15A0 002:671 JLINK_WriteReg(R14, 0x20000001)  returns 0x00 (0000ms, 1202ms total)
T15A0 002:671 JLINK_WriteReg(R15, 0x20000108)  returns 0x00 (0000ms, 1202ms total)
T15A0 002:671 JLINK_WriteReg(XPSR, 0x01000000)  returns 0x00 (0000ms, 1202ms total)
T15A0 002:671 JLINK_WriteReg(MSP, 0x20000800)  returns 0x00 (0000ms, 1202ms total)
T15A0 002:671 JLINK_WriteReg(PSP, 0x20000800)  returns 0x00 (0000ms, 1202ms total)
T15A0 002:671 JLINK_WriteReg(CFBP, 0x00000000)  returns 0x00 (0000ms, 1202ms total)
T15A0 002:671 JLINK_SetBPEx(Addr = 0x20000000, Type = 0xFFFFFFF2)  returns 0x00000010 (0000ms, 1202ms total)
T15A0 002:671 JLINK_Go() -- CPU_WriteMem(4 bytes @ 0xE0002008) -- CPU_WriteMem(4 bytes @ 0xE000200C) -- CPU_WriteMem(4 bytes @ 0xE0002010) -- CPU_WriteMem(4 bytes @ 0xE0002014) -- CPU_WriteMem(4 bytes @ 0xE0002018) -- CPU_WriteMem(4 bytes @ 0xE000201C) (0009ms, 1202ms total)
T15A0 002:680 JLINK_IsHalted()  returns FALSE (0001ms, 1211ms total)
T15A0 002:731 JLINK_IsHalted() -- CPU_ReadMem(2 bytes @ 0x20000000)  returns TRUE (0005ms, 1211ms total)
T15A0 002:736 JLINK_ReadReg(R15)  returns 0x20000000 (0000ms, 1211ms total)
T15A0 002:736 JLINK_ClrBPEx(BPHandle = 0x00000010)  returns 0x00 (0000ms, 1211ms total)
T15A0 002:736 JLINK_ReadReg(R0)  returns 0x00000000 (0000ms, 1211ms total)
T15A0 002:737 JLINK_WriteMem(0x20000180, 0x0400 Bytes, ...) -- Data:  0A 46 00 21 01 8C 4D F6 FF 73 19 40 13 07 41 EA ... -- CPU_WriteMem(1024 bytes @ 0x20000180)  returns 0x400 (0011ms, 1211ms total)
T15A0 002:748 JLINK_WriteReg(R0, 0x08002400)  returns 0x00 (0000ms, 1222ms total)
T15A0 002:748 JLINK_WriteReg(R1, 0x00000400)  returns 0x00 (0000ms, 1222ms total)
T15A0 002:748 JLINK_WriteReg(R2, 0x20000180)  returns 0x00 (0000ms, 1222ms total)
T15A0 002:748 JLINK_WriteReg(R3, 0x00000000)  returns 0x00 (0000ms, 1222ms total)
T15A0 002:748 JLINK_WriteReg(R4, 0x00000000)  returns 0x00 (0000ms, 1222ms total)
